#  HZ   S   RI   R     50.00 
! Rohde & Schwarz Vector Network Analyzer 
! Rohde-Schwarz,ZNB8-4Port,1311601044101860,2.30
! Created: UTC 7/3/2026, 7:06:40 AM
! freq[Hz]                re:S11                  im:S11                  re:S12                  im:S12                  re:S13                  im:S13                  re:S14                  im:S14
!                         re:S21                  im:S21                  re:S22                  im:S22                  re:S23                  im:S23                  re:S24                  im:S24
!                         re:S31                  im:S31                  re:S32                  im:S32                  re:S33                  im:S33                  re:S34                  im:S34
!                         re:S41                  im:S41                  re:S42                  im:S42                  re:S43                  im:S43                  re:S44                  im:S44
! 
 1.000000000000000E9     1.826391504392043E-1    4.008194367215315E-1    6.817474036662445E-2   -5.149092584523924E-1   -1.040539759973508E-1   -5.055056152571202E-1   -1.730386750258290E-1   -4.617147588899315E-1
                         6.909474214225028E-2   -5.153440587687174E-1    8.831318489316109E-2    5.039902328255763E-1   -1.725274080955349E-1   -4.652176714140124E-1    2.182376626818935E-2   -4.364988551126586E-1
                        -1.035476036586030E-1   -5.041930883360846E-1   -1.725003069351417E-1   -4.642176706053472E-1    1.848299907168391E-1    4.033750536926350E-1    7.251392680749118E-2   -5.040360406024140E-1
                        -1.729904657193984E-1   -4.610123376849172E-1    2.165187326044180E-2   -4.356623464629039E-1    7.411013568468257E-2   -5.043077865452814E-1    7.761518647400383E-2    5.156051565256735E-1
                        
 1.007500000000000E9     1.881593602287870E-1    3.971184723446773E-1    6.134141288838390E-2   -5.162739094003321E-1   -1.104418314812109E-1   -5.051895105120349E-1   -1.798040605476900E-1   -4.584773907476009E-1
                         6.336464900884538E-2   -5.161541873426988E-1    9.521676935382022E-2    5.034689905756622E-1   -1.795655476770684E-1   -4.632134602847529E-1    1.714882346380055E-2   -4.364670866498838E-1
                        -1.098344839033949E-1   -5.038632999175986E-1   -1.800839702083203E-1   -4.617336730227118E-1    1.919487039073855E-1    3.996682907021862E-1    6.706877250092133E-2   -5.063422527606727E-1
                        -1.789455011837118E-1   -4.588126516968483E-1    1.621362088931233E-2   -4.351057640274540E-1    6.819734135998268E-2   -5.057970020166611E-1    8.298717107993220E-2    5.145935237536335E-1
                        
 1.015000000000000E9     1.945991932927482E-1    3.918453389909184E-1    5.604435330314817E-2   -5.168873250156901E-1   -1.165100980479926E-1   -5.039025420183525E-1   -1.870110948495939E-1   -4.559528994548902E-1
                         5.718330006455869E-2   -5.165721749538337E-1    1.018728114645609E-1    5.020874329835015E-1   -1.865586829175067E-1   -4.596333835559596E-1    1.096898635818002E-2   -4.350457743490624E-1
                        -1.162471551861045E-1   -5.024291195343572E-1   -1.867005486934325E-1   -4.584332662944472E-1    1.965507246471736E-1    3.957755145062161E-1    6.143031917175616E-2   -5.059627487643216E-1
                        -1.865651137015809E-1   -4.559320329176180E-1    1.117295787344147E-2   -4.342918753565277E-1    6.222343123981580E-2   -5.066205535675591E-1    9.125006329978347E-2    5.141835382314509E-1
                        
 1.022500000000000E9     1.996309101197383E-1    3.892860172551356E-1    5.013731345795094E-2   -5.178063255692049E-1   -1.234070033122327E-1   -5.024673687178423E-1   -1.936472235276340E-1   -4.528528349194913E-1
                         5.130379559204423E-2   -5.175258044927160E-1    1.078470736616989E-1    5.016256586981045E-1   -1.923939055659291E-1   -4.572989562271796E-1    6.057926392281794E-3   -4.342824944044210E-1
                        -1.229016701908589E-1   -5.014683685846445E-1   -1.934616688694070E-1   -4.563479808377903E-1    2.031271444489801E-1    3.909457251361681E-1    5.600735807464601E-2   -5.074793461572809E-1
                        -1.936384253792661E-1   -4.534741224866149E-1    6.408484503776416E-3   -4.335370468150540E-1    5.638337053705576E-2   -5.077807104371130E-1    9.750234295350307E-2    5.132076818629031E-1
                        
 1.030000000000000E9     2.060979666217114E-1    3.853028010461163E-1    4.472243530179260E-2   -5.177992207023827E-1   -1.300197127967822E-1   -5.004211389976645E-1   -2.008800324666466E-1   -4.493633388261396E-1
                         4.492899531742124E-2   -5.190855061088244E-1    1.148960310007755E-1    5.009192545312939E-1   -1.992482600738367E-1   -4.538226225648461E-1    9.198957518249951E-5   -4.341892218123207E-1
                        -1.303144631883902E-1   -5.009504348099244E-1   -1.998808787503119E-1   -4.532262716144383E-1    2.089008399649054E-1    3.867523143937394E-1    4.856710724515941E-2   -5.083203686745714E-1
                        -2.002750764538808E-1   -4.509492901172609E-1    2.424719975747778E-3   -4.328139797562042E-1    5.098061443469189E-2   -5.076235677396095E-1    1.048794176462528E-1    5.126990618993139E-1
                        
 1.037500000000000E9     2.106916509044741E-1    3.808954677584352E-1    3.802559148703668E-2   -5.184063982972853E-1   -1.377317029067910E-1   -4.995425346818554E-1   -2.067659907051649E-1   -4.469119050113469E-1
                         3.995750121626072E-2   -5.192364454152306E-1    1.220479406156897E-1    5.000109665381847E-1   -2.063277360796351E-1   -4.504798430220010E-1   -2.912099493892525E-3   -4.329169946241818E-1
                        -1.372587036047945E-1   -4.994068591562711E-1   -2.075819559741296E-1   -4.503164417379743E-1    2.143535865645256E-1    3.837182924241677E-1    4.291958309864023E-2   -5.098490752215036E-1
                        -2.062932674700967E-1   -4.464002942421373E-1   -3.576336684424950E-3   -4.312463020316444E-1    4.423304247593236E-2   -5.085989231676790E-1    1.094547561574152E-1    5.124827107056207E-1
                        
 1.045000000000000E9     2.170118332265115E-1    3.775868870753844E-1    3.246992655089390E-2   -5.182209260561332E-1   -1.438355899102664E-1   -4.979619478064358E-1   -2.115640208706331E-1   -4.441944556380094E-1
                         3.324456152880848E-2   -5.194717087986353E-1    1.276436615883710E-1    4.985731230702546E-1   -2.124928006267479E-1   -4.475249150359502E-1   -6.570918412348678E-3   -4.319178681018626E-1
                        -1.433586808870707E-1   -4.979235665245156E-1   -2.130397197141897E-1   -4.474577084842229E-1    2.195005206100371E-1    3.800770587559871E-1    3.906347702036819E-2   -5.095463411707749E-1
                        -2.140389272139831E-1   -4.446402566006141E-1   -7.998004668919888E-3   -4.311777532139071E-1    3.850801627402289E-2   -5.096810940577882E-1    1.144600426342716E-1    5.124666041783866E-1
                        
 1.052500000000000E9     2.208404817004679E-1    3.732763945949353E-1    2.566720970939905E-2   -5.191371505485647E-1   -1.504026885068885E-1   -4.961686189971969E-1   -2.194832478676327E-1   -4.405235750959299E-1
                         2.752294384772163E-2   -5.196799797268812E-1    1.344770867710366E-1    4.981952807194606E-1   -2.182894892971403E-1   -4.446257835972927E-1   -1.216571464958573E-2   -4.304315175054099E-1
                        -1.498219819103291E-1   -4.959020170113158E-1   -2.191230349893013E-1   -4.438643430427590E-1    2.241978415719824E-1    3.759208769486407E-1    3.310954234887198E-2   -5.093941938367963E-1
                        -2.192364979306478E-1   -4.407411630622193E-1   -1.269762896203965E-2   -4.293044717642710E-1    3.414533015487870E-2   -5.093439798550875E-1    1.216222306980955E-1    5.106587378559070E-1
                        
 1.060000000000000E9     2.263394173346637E-1    3.695845665556742E-1    2.072942720923517E-2   -5.198490205156321E-1   -1.567912846024537E-1   -4.945508107946208E-1   -2.247730657792853E-1   -4.370488059935744E-1
                         2.143026854234726E-2   -5.189005327172489E-1    1.393022782945606E-1    4.974120265342827E-1   -2.251498953712356E-1   -4.414774690802072E-1   -1.651738297103381E-2   -4.288255403628360E-1
                        -1.565624745842525E-1   -4.944839941033019E-1   -2.254481855635861E-1   -4.420449077226706E-1    2.290659432294878E-1    3.717367001919702E-1    2.692920584815642E-2   -5.100354646013564E-1
                        -2.249915090246830E-1   -4.376194007499148E-1   -1.646956456851465E-2   -4.294172034797511E-1    2.791117568583711E-2   -5.102224859589817E-1    1.270620173421905E-1    5.105227510717387E-1
                        
 1.067500000000000E9     2.323069230557970E-1    3.663232755711174E-1    1.462623434161048E-2   -5.187682221501372E-1   -1.637883198018282E-1   -4.920951263039891E-1   -2.319679598755232E-1   -4.331775188798803E-1
                         1.548640510451819E-2   -5.194733656385632E-1    1.470742847234220E-1    4.955249495080132E-1   -2.314079796746340E-1   -4.378750450106390E-1   -2.062540861815874E-2   -4.276814177297680E-1
                        -1.635963940242555E-1   -4.925903334384297E-1   -2.325256967887232E-1   -4.383419996295682E-1    2.346262965286151E-1    3.683721029120415E-1    2.153659682404494E-2   -5.104365232627516E-1
                        -2.321801638161255E-1   -4.342225123196789E-1   -2.150586031981196E-2   -4.269975231475027E-1    2.179670429420933E-2   -5.090707902478221E-1    1.335048479096234E-1    5.086406496491199E-1
                        
 1.075000000000000E9     2.362319766918814E-1    3.623567998525548E-1    8.685380407808066E-3   -5.193719031811799E-1   -1.703054843244938E-1   -4.906392501202898E-1   -2.381008741928509E-1   -4.302988700132653E-1
                         9.411591356762868E-3   -5.195977827855088E-1    1.536660635300456E-1    4.949577255919090E-1   -2.382499634439968E-1   -4.346333247302356E-1   -2.532861653123664E-2   -4.269641855886460E-1
                        -1.689030454013840E-1   -4.897689009089092E-1   -2.391132156327933E-1   -4.340083787115607E-1    2.386384891903768E-1    3.647933024730592E-1    1.575438852654141E-2   -5.097533962336689E-1
                        -2.381147078326112E-1   -4.310913779518031E-1   -2.617281602752527E-2   -4.266396285440436E-1    1.630431254562315E-2   -5.101121470445486E-1    1.412229463885361E-1    5.080600372663477E-1
                        
 1.082500000000000E9     2.409817052710911E-1    3.579527405999187E-1    2.472549403816577E-3   -5.195051705121382E-1   -1.772297825675359E-1   -4.880462934047741E-1   -2.441720161993119E-1   -4.272475345279355E-1
                         2.720285321816497E-3   -5.190687816045895E-1    1.595492277018997E-1    4.932198831691022E-1   -2.457419364525549E-1   -4.311385316088153E-1   -2.971874077898822E-2   -4.256708511812822E-1
                        -1.755506700183709E-1   -4.881671844949037E-1   -2.452868776196667E-1   -4.316998984987798E-1    2.437169137292475E-1    3.607698045411160E-1    1.090692084654923E-2   -5.108788119511718E-1
                        -2.437569901950663E-1   -4.279875261048249E-1   -2.980060926286429E-2   -4.261516862441491E-1    1.044515781817852E-2   -5.113672474832623E-1    1.449318999364540E-1    5.067439616698565E-1
                        
 1.090000000000000E9     2.456501997103309E-1    3.545610705660554E-1   -3.255484471712942E-3   -5.185622530251900E-1   -1.825154635917071E-1   -4.866196005621528E-1   -2.504890928548314E-1   -4.236050839430676E-1
                        -1.917141198028848E-3   -5.190354296899796E-1    1.653099811159710E-1    4.919148753781396E-1   -2.508963246359144E-1   -4.281847107701197E-1   -3.338689354122321E-2   -4.244701645303217E-1
                        -1.827009313869739E-1   -4.875980811650075E-1   -2.517658494393450E-1   -4.281306617132829E-1    2.481865229260344E-1    3.573225741272722E-1    4.215632264478271E-3   -5.111870711802624E-1
                        -2.504150381686313E-1   -4.237935687898199E-1   -3.452363664547301E-2   -4.232950487562869E-1    5.488575149591813E-3   -5.103631794937368E-1    1.504456504874908E-1    5.052623223351591E-1
                        
 1.097500000000000E9     2.499780861239567E-1    3.508212806201899E-1   -8.649599054014323E-3   -5.185558221532713E-1   -1.896543468573953E-1   -4.848015919849276E-1   -2.568936997106811E-1   -4.195283612559302E-1
                        -7.329345795655257E-3   -5.203146061783641E-1    1.709898240882758E-1    4.894601936945662E-1   -2.573102113163221E-1   -4.253461651548515E-1   -3.855233853160321E-2   -4.235935051273653E-1
                        -1.895070822280406E-1   -4.847326722572157E-1   -2.580735213961748E-1   -4.239175645299803E-1    2.528585134520837E-1    3.519909931615983E-1   -1.927729266563743E-3   -5.109638723246919E-1
                        -2.568245179700936E-1   -4.196599589458158E-1   -3.941785835081533E-2   -4.223212769387065E-1   -1.638509046207866E-3   -5.111629342396223E-1    1.579390211169763E-1    5.041174627364715E-1
                        
 1.105000000000000E9     2.548788652424923E-1    3.462957821698547E-1   -1.489716640480384E-2   -5.190012987876007E-1   -1.953701122448772E-1   -4.833944570058626E-1   -2.623960108561084E-1   -4.161938246384052E-1
                        -1.403899682742374E-2   -5.197664013640647E-1    1.763140757147518E-1    4.886021504695034E-1   -2.631123195737004E-1   -4.214739165318278E-1   -4.250749595423579E-2   -4.219200644368006E-1
                        -1.960858320341505E-1   -4.835479492582158E-1   -2.649029027803337E-1   -4.205936434876981E-1    2.564243344828047E-1    3.480245887384353E-1   -7.561500148993067E-3   -5.116696079533953E-1
                        -2.633375764590514E-1   -4.170722507165612E-1   -4.333777582426584E-2   -4.211448437211325E-1   -6.790916793639157E-3   -5.106657151295240E-1    1.625568842701588E-1    5.030085905525088E-1
                        
 1.112500000000000E9     2.586449571008091E-1    3.426858960782153E-1   -2.043036944268832E-2   -5.190163864432283E-1   -2.023045544843233E-1   -4.813594182839255E-1   -2.689835686725678E-1   -4.130153537259272E-1
                        -1.990362800720665E-2   -5.201876351450592E-1    1.812674773871137E-1    4.868989673487750E-1   -2.701623324578819E-1   -4.178874154362864E-1   -4.685695315412606E-2   -4.211956758865176E-1
                        -2.027586488554050E-1   -4.819515693350805E-1   -2.711554072490902E-1   -4.174319710480630E-1    2.601831062980344E-1    3.422127078441090E-1   -1.260061640410055E-2   -5.120939518938299E-1
                        -2.687260951811943E-1   -4.135561796956830E-1   -4.760063521862105E-2   -4.200040611787314E-1   -1.271506809704178E-2   -5.107742540131328E-1    1.691611854275719E-1    5.001855126993231E-1
                        
 1.120000000000000E9     2.618168130361754E-1    3.376033004583241E-1   -2.714568070277238E-2   -5.193639380614696E-1   -2.090155290306174E-1   -4.797715279794297E-1   -2.753272070925615E-1   -4.086776139892407E-1
                        -2.602166971143245E-2   -5.201348344583819E-1    1.884245106446030E-1    4.849798978235015E-1   -2.761122006950455E-1   -4.142901422957557E-1   -5.210492674727869E-2   -4.203853310102486E-1
                        -2.090407834859571E-1   -4.797617359322438E-1   -2.769807531264900E-1   -4.129420424909009E-1    2.652986033889584E-1    3.378549857784859E-1   -1.913492240915420E-2   -5.122927725253378E-1
                        -2.756122942781422E-1   -4.086331254280684E-1   -5.265482534220169E-2   -4.180659352370572E-1   -1.879360021530507E-2   -5.103702582152149E-1    1.741842096714554E-1    4.988574177217867E-1
                        
 1.127500000000000E9     2.666013549849427E-1    3.328623403025084E-1   -3.365949941617136E-2   -5.193254100402683E-1   -2.156978684876453E-1   -4.774433941912394E-1   -2.819322874710902E-1   -4.051305114381759E-1
                        -3.336446516590017E-2   -5.202438417055727E-1    1.936455848502883E-1    4.833023900423457E-1   -2.825435273471759E-1   -4.102418211275154E-1   -5.626710024718371E-2   -4.183378357160841E-1
                        -2.171976139238136E-1   -4.773355988821161E-1   -2.831767584085785E-1   -4.087242925941830E-1    2.702285925047165E-1    3.327900017130933E-1   -2.613869565052658E-2   -5.108790351875039E-1
                        -2.827167708820811E-1   -4.060701776992828E-1   -5.660819702614114E-2   -4.170816482305928E-1   -2.509102365097270E-2   -5.102895409164696E-1    1.815207350531866E-1    4.966808276147597E-1
                        
 1.135000000000000E9     2.695372254320802E-1    3.274326137399609E-1   -4.011926718769927E-2   -5.194287361057752E-1   -2.234620650636107E-1   -4.754500177396990E-1   -2.886183491266701E-1   -4.006133544025661E-1
                        -3.889373224950635E-2   -5.186278595866876E-1    2.000401454139960E-1    4.814873228831132E-1   -2.885771419609595E-1   -4.060707534323692E-1   -6.097542157811124E-2   -4.159914341255528E-1
                        -2.227344798167598E-1   -4.743097922093553E-1   -2.891902806111567E-1   -4.049063117566074E-1    2.736085718619705E-1    3.275370023246491E-1   -3.164799518684988E-2   -5.112437358538391E-1
                        -2.879645754909876E-1   -4.002323598006402E-1   -6.152327684914462E-2   -4.152603784696197E-1   -3.136181027033058E-2   -5.107332065234641E-1    1.886780890112080E-1    4.955359791872338E-1
                        
 1.142500000000000E9     2.734320926844391E-1    3.228164001201863E-1   -4.689312323224396E-2   -5.188780193275162E-1   -2.298161267195330E-1   -4.724531865396870E-1   -2.940757145830851E-1   -3.966240447138828E-1
                        -4.569290263242461E-2   -5.189839474746736E-1    2.065250869814683E-1    4.792268541845986E-1   -2.959654268866442E-1   -4.016224646716910E-1   -6.553485090725641E-2   -4.150600928170425E-1
                        -2.290973439153806E-1   -4.716044428709211E-1   -2.952355829439251E-1   -4.010143006760501E-1    2.779456201327892E-1    3.228930873897705E-1   -3.715829835547221E-2   -5.102759025142268E-1
                        -2.930363703050211E-1   -3.964234021742282E-1   -6.476629282906146E-2   -4.134879301625437E-1   -3.690155606473053E-2   -5.092692402639529E-1    1.950120650524953E-1    4.934699313487651E-1
                        
 1.150000000000000E9     2.762453478465226E-1    3.186960773612385E-1   -5.416479512984453E-2   -5.184391297474795E-1   -2.372119893477308E-1   -4.703453627849842E-1   -3.004241792493677E-1   -3.930150761638006E-1
                        -5.178111511444573E-2   -5.185623439099701E-1    2.131686724731491E-1    4.774660396349839E-1   -3.000678156367079E-1   -3.969639215984094E-1   -6.922409461256501E-2   -4.126983530020718E-1
                        -2.358581776793856E-1   -4.696544368045750E-1   -3.004597587347326E-1   -3.955859119539159E-1    2.819313219869706E-1    3.166462059914676E-1   -4.288980377794018E-2   -5.080413192208113E-1
                        -2.997814354981723E-1   -3.933181433540450E-1   -7.006876555478278E-2   -4.116937801384442E-1   -4.258680676796127E-2   -5.081448726135133E-1    1.996976471017787E-1    4.920362091581611E-1
                        
 1.157500000000000E9     2.809363860026881E-1    3.119841318453848E-1   -6.025304783634454E-2   -5.177325917271244E-1   -2.434401647479642E-1   -4.675391509871010E-1   -3.057942874798816E-1   -3.878700271588572E-1
                        -5.913851494900772E-2   -5.186007487157290E-1    2.195252585889891E-1    4.741092676147747E-1   -3.075434383281653E-1   -3.910508625404514E-1   -7.457736992201729E-2   -4.111827842742124E-1
